
TB38C 000:170 SEGGER J-Link V6.10i Log File (0001ms, 0067ms total)
TB38C 000:170 DLL Compiled: Oct 25 2016 19:31:51 (0001ms, 0067ms total)
TB38C 000:170 Logging started @ 2019-06-12 20:31 (0001ms, 0067ms total)
TB38C 000:171 JLINK_SetWarnOutHandler(...) (0000ms, 0067ms total)
TB38C 000:171 JLINK_OpenEx(...)
Firmware: J-Link ARM V8 compiled Jan 31 2018 18:34:52
Hardware: V8.00
S/N: 20080643
Feature(s): RDI,FlashDL,FlashBP,JFlash,GDBFullWEBSRV Webserver running on local port 19080 (0067ms, 0134ms total)
TB38C 000:171   returns O.K. (0067ms, 0134ms total)
TB38C 000:238 JLINK_SetErrorOutHandler(...) (0000ms, 0134ms total)
TB38C 000:238 JLINK_ExecCommand("ProjectFile = "E:\工程资料\19.5.29CanOpen\KRBCNCR70-CNCRobotControlM-170925-2\JLinkSettings.ini"", ...).   returns 0x00 (0159ms, 0293ms total)
TB38C 000:404 JLINK_ExecCommand("Device = STM32F103ZE", ...). Device "STM32F103ZE" selected.  returns 0x00 (0014ms, 0307ms total)
TB38C 000:418 JLINK_ExecCommand("DisableConnectionTimeout", ...).   returns 0x01 (0000ms, 0307ms total)
TB38C 000:419 JLINK_GetHardwareVersion()  returns 0x13880 (0000ms, 0307ms total)
TB38C 000:419 JLINK_GetDLLVersion()  returns 61009 (0000ms, 0307ms total)
TB38C 000:419 JLINK_GetFirmwareString(...) (0000ms, 0307ms total)
TB38C 000:453 JLINK_GetDLLVersion()  returns 61009 (0000ms, 0307ms total)
TB38C 000:453 JLINK_GetCompileDateTime() (0000ms, 0307ms total)
TB38C 000:463 JLINK_GetFirmwareString(...) (0000ms, 0307ms total)
TB38C 000:475 JLINK_GetHardwareVersion()  returns 0x13880 (0000ms, 0307ms total)
TB38C 000:498 JLINK_TIF_Select(JLINKARM_TIF_SWD)  returns 0x00 (0001ms, 0308ms total)
TB38C 000:499 JLINK_SetSpeed(5000) (0000ms, 0308ms total)
TB38C 000:499 JLINK_GetId() >0x108 TIF>Found SWD-DP with ID 0x1BA01477 >0x0D TIF> >0x28 TIF> >0x0D TIF> >0x28 TIF> >0x0D TIF> >0x28 TIF> >0x0D TIF> >0x28 TIF> >0x0D TIF> >0x21 TIF> >0x0D TIF> >0x28 TIF> >0x0D TIF> >0x28 TIF> >0x0D TIF> >0x28 TIF> >0x0D TIF> >0x21 TIF> >0x0D TIF> >0x21 TIF> >0x0D TIF> >0x28 TIF> >0x0D TIF> >0x21 TIF> >0x0D TIF> >0x21 TIF> >0x0D TIF> >0x28 TIF> >0x0D TIF> >0x28 TIF> >0x0D TIF> >0x28 TIF> >0x0D TIF> >0x21 TIF> >0x0D TIF> >0x21 TIF> >0x0D TIF> >0x28 TIF> >0x0D TIF>
 >0x21 TIF> >0x0D TIF> >0x21 TIF> >0x0D TIF> >0x28 TIF> >0x0D TIF> >0x21 TIF> >0x0D TIF> >0x21 TIF> >0x0D TIF> >0x28 TIF> >0x0D TIF> >0x21 TIF> >0x0D TIF> >0x21 TIF> >0x0D TIF> >0x28 TIF> >0x0D TIF> >0x21 TIF> >0x0D TIF> >0x21 TIF> >0x108 TIF>Found SWD-DP with ID 0x1BA01477 >0x0D TIF> >0x28 TIF> >0x0D TIF> >0x28 TIF> >0x0D TIF> >0x28 TIF> >0x0D TIF> >0x28 TIF> >0x0D TIF> >0x21 TIF> >0x0D TIF> >0x28 TIF> >0x0D TIF> >0x28 TIF> >0x0D TIF> >0x21 TIF> >0x0D TIF> >0x21 TIF> >0x0D TIF> >0x21 TIF>
AP-IDR: 0x14770011, Type: AHB-AP >0x0D TIF> >0x28 TIF> >0x0D TIF> >0x28 TIF> >0x0D TIF> >0x28 TIF> >0x0D TIF> >0x21 TIF> >0x0D TIF> >0x21 TIF> >0x0D TIF> >0x28 TIF> >0x0D TIF> >0x21 TIF> >0x0D TIF> >0x21 TIF>Found Cortex-M3 r1p1, Little endian. >0x0D TIF> >0x28 TIF> -- CPU_ReadMem(4 bytes @ 0xE000EDF0) -- CPU_WriteMem(4 bytes @ 0xE000EDF0) -- CPU_ReadMem(4 bytes @ 0xE0002000)FPUnit: 6 code (BP) slots and 2 literal slots -- CPU_ReadMem(4 bytes @ 0xE000EDFC) -- CPU_WriteMem(4 bytes @ 0xE000EDFC)
 -- CPU_ReadMem(4 bytes @ 0xE0001000) -- CPU_WriteMem(4 bytes @ 0xE0001000) -- CPU_ReadMem(4 bytes @ 0xE000ED88) -- CPU_WriteMem(4 bytes @ 0xE000ED88) -- CPU_ReadMem(4 bytes @ 0xE000ED88) -- CPU_WriteMem(4 bytes @ 0xE000ED88)CoreSight components:ROMTbl 0 @ E00FF000 -- CPU_ReadMem(16 bytes @ 0xE00FF000) -- CPU_ReadMem(16 bytes @ 0xE000EFF0) -- CPU_ReadMem(16 bytes @ 0xE000EFE0)ROMTbl 0 [0]: FFF0F000, CID: B105E00D, PID: 001BB000 SCS -- CPU_ReadMem(16 bytes @ 0xE0001FF0)
 -- CPU_ReadMem(16 bytes @ 0xE0001FE0)ROMTbl 0 [1]: FFF02000, CID: B105E00D, PID: 001BB002 DWT -- CPU_ReadMem(16 bytes @ 0xE0002FF0) -- CPU_ReadMem(16 bytes @ 0xE0002FE0)ROMTbl 0 [2]: FFF03000, CID: B105E00D, PID: 000BB003 FPB -- CPU_ReadMem(16 bytes @ 0xE0000FF0) -- CPU_ReadMem(16 bytes @ 0xE0000FE0)ROMTbl 0 [3]: FFF01000, CID: B105E00D, PID: 001BB001 ITM -- CPU_ReadMem(16 bytes @ 0xE00FF010) -- CPU_ReadMem(16 bytes @ 0xE0040FF0) -- CPU_ReadMem(16 bytes @ 0xE0040FE0)
ROMTbl 0 [4]: FFF41000, CID: B105900D, PID: 001BB923 TPIU-Lite -- CPU_ReadMem(16 bytes @ 0xE0041FF0) -- CPU_ReadMem(16 bytes @ 0xE0041FE0)ROMTbl 0 [5]: FFF42000, CID: B105900D, PID: 101BB924 ETM-M3 >0x0D TIF> >0x21 TIF>  returns 0x1BA01477 (0166ms, 0474ms total)
TB38C 000:665 JLINK_GetDLLVersion()  returns 61009 (0000ms, 0474ms total)
TB38C 000:665 JLINK_CORE_GetFound()  returns 0x30000FF (0000ms, 0474ms total)
TB38C 000:665 JLINK_GetDebugInfo(0x100) -- Value=0xE00FF000  returns 0x00 (0000ms, 0474ms total)
TB38C 000:672 JLINK_GetDebugInfo(0x100) -- Value=0xE00FF000  returns 0x00 (0000ms, 0474ms total)
TB38C 000:672 JLINK_GetDebugInfo(0x101) -- Value=0xE0041000  returns 0x00 (0000ms, 0474ms total)
TB38C 000:672 JLINK_GetDebugInfo(0x102) -- Value=0x00000000  returns 0x00 (0000ms, 0474ms total)
TB38C 000:672 JLINK_GetDebugInfo(0x103) -- Value=0xE0040000  returns 0x00 (0000ms, 0474ms total)
TB38C 000:672 JLINK_GetDebugInfo(0x104) -- Value=0xE0000000  returns 0x00 (0000ms, 0474ms total)
TB38C 000:672 JLINK_GetDebugInfo(0x105) -- Value=0xE0001000  returns 0x00 (0000ms, 0474ms total)
TB38C 000:672 JLINK_GetDebugInfo(0x106) -- Value=0xE0002000  returns 0x00 (0000ms, 0474ms total)
TB38C 000:672 JLINK_GetDebugInfo(0x107) -- Value=0xE000E000  returns 0x00 (0000ms, 0474ms total)
TB38C 000:672 JLINK_GetDebugInfo(0x10C) -- Value=0xE000EDF0  returns 0x00 (0000ms, 0474ms total)
TB38C 000:672 JLINK_ReadMemU32(0xE000ED00, 0x0001 Items, ...) -- CPU is running -- CPU_ReadMem(4 bytes @ 0xE000ED00) - Data: 31 C2 1F 41  returns 0x01 (0000ms, 0474ms total)
TB38C 000:672 JLINK_SetResetType(JLINKARM_RESET_TYPE_NORMAL)  returns JLINKARM_RESET_TYPE_NORMAL (0001ms, 0475ms total)
TB38C 000:673 JLINK_Reset() -- CPU_WriteMem(4 bytes @ 0xE0002000) -- CPU_ReadMem(4 bytes @ 0xE000EDFC) -- CPU_WriteMem(4 bytes @ 0xE000EDFC) -- CPU_ReadMem(4 bytes @ 0xE0001000) (0011ms, 0486ms total)
TB38C 000:684 JLINK_Halt()  returns 0x00 (0000ms, 0486ms total)
TB38C 000:684 JLINK_IsHalted()  returns TRUE (0000ms, 0486ms total)
TB38C 000:684 JLINK_ReadMemU32(0xE000EDF0, 0x0001 Items, ...) -- CPU_ReadMem(4 bytes @ 0xE000EDF0) - Data: 03 00 03 00  returns 0x01 (0000ms, 0486ms total)
TB38C 000:684 JLINK_WriteU32(0xE000EDF0, 0xA05F0003) -- CPU_WriteMem(4 bytes @ 0xE000EDF0)  returns 0x00 (0000ms, 0486ms total)
TB38C 000:684 JLINK_WriteU32(0xE000EDFC, 0x01000000) -- CPU_WriteMem(4 bytes @ 0xE000EDFC)  returns 0x00 (0001ms, 0487ms total)
TB38C 000:719 JLINK_GetHWStatus(...)  returns 0x00 (0001ms, 0488ms total)
TB38C 000:738 JLINK_GetNumBPUnits(Type = 0xFFFFFF00)  returns 0x06 (0000ms, 0488ms total)
TB38C 000:738 JLINK_GetNumBPUnits(Type = 0xF0)  returns 0x2000 (0000ms, 0488ms total)
TB38C 000:738 JLINK_GetNumWPUnits()  returns 0x04 (0000ms, 0488ms total)
TB38C 000:756 JLINK_GetSpeed()  returns 0xFA0 (0000ms, 0488ms total)
TB38C 000:776 JLINK_ReadMemU32(0xE000E004, 0x0001 Items, ...) -- CPU_ReadMem(4 bytes @ 0xE000E004) - Data: 01 00 00 00  returns 0x01 (0001ms, 0489ms total)
TB38C 000:777 JLINK_ReadMemU32(0xE000E004, 0x0001 Items, ...) -- CPU_ReadMem(4 bytes @ 0xE000E004) - Data: 01 00 00 00  returns 0x01 (0000ms, 0489ms total)
TB38C 000:777 JLINK_WriteMem(0xE0001000, 0x001C Bytes, ...) - Data: 01 00 00 00 00 00 00 00 00 00 00 00 00 00 00 00 ... -- CPU_WriteMem(28 bytes @ 0xE0001000)  returns 0x1C (0001ms, 0490ms total)
TB38C 000:778 JLINK_ReadMem (0xE0001000, 0x001C Bytes, ...) -- CPU_ReadMem(28 bytes @ 0xE0001000) - Data: 01 00 00 40 00 00 00 00 00 00 00 00 00 00 00 00 ...  returns 0x00 (0001ms, 0491ms total)
TB38C 000:779 JLINK_Halt()  returns 0x00 (0000ms, 0491ms total)
TB38C 000:779 JLINK_IsHalted()  returns TRUE (0000ms, 0491ms total)
TB38C 000:787 JLINK_WriteMem(0x20000000, 0x0164 Bytes, ...) - Data: 00 BE 0A E0 0D 78 2D 06 68 40 08 24 40 00 00 D3 ... -- CPU_WriteMem(356 bytes @ 0x20000000)  returns 0x164 (0003ms, 0494ms total)
TB38C 000:790 JLINK_WriteReg(R0, 0x08000000)  returns 0x00 (0000ms, 0494ms total)
TB38C 000:790 JLINK_WriteReg(R1, 0x00B71B00)  returns 0x00 (0000ms, 0494ms total)
TB38C 000:790 JLINK_WriteReg(R2, 0x00000001)  returns 0x00 (0000ms, 0494ms total)
TB38C 000:790 JLINK_WriteReg(R3, 0x00000000)  returns 0x00 (0000ms, 0494ms total)
TB38C 000:790 JLINK_WriteReg(R4, 0x00000000)  returns 0x00 (0000ms, 0494ms total)
TB38C 000:790 JLINK_WriteReg(R5, 0x00000000)  returns 0x00 (0000ms, 0494ms total)
TB38C 000:790 JLINK_WriteReg(R6, 0x00000000)  returns 0x00 (0000ms, 0494ms total)
TB38C 000:790 JLINK_WriteReg(R7, 0x00000000)  returns 0x00 (0000ms, 0494ms total)
TB38C 000:790 JLINK_WriteReg(R8, 0x00000000)  returns 0x00 (0000ms, 0494ms total)
TB38C 000:790 JLINK_WriteReg(R9, 0x20000160)  returns 0x00 (0000ms, 0494ms total)
TB38C 000:790 JLINK_WriteReg(R10, 0x00000000)  returns 0x00 (0000ms, 0494ms total)
TB38C 000:790 JLINK_WriteReg(R11, 0x00000000)  returns 0x00 (0000ms, 0494ms total)
TB38C 000:790 JLINK_WriteReg(R12, 0x00000000)  returns 0x00 (0000ms, 0494ms total)
TB38C 000:790 JLINK_WriteReg(R13 (SP), 0x20000800)  returns 0x00 (0000ms, 0494ms total)
TB38C 000:790 JLINK_WriteReg(R14, 0x20000001)  returns 0x00 (0000ms, 0494ms total)
TB38C 000:790 JLINK_WriteReg(R15 (PC), 0x20000038)  returns 0x00 (0000ms, 0494ms total)
TB38C 000:790 JLINK_WriteReg(XPSR, 0x01000000)  returns 0x00 (0000ms, 0494ms total)
TB38C 000:790 JLINK_WriteReg(MSP, 0x20000800)  returns 0x00 (0000ms, 0494ms total)
TB38C 000:790 JLINK_WriteReg(PSP, 0x20000800)  returns 0x00 (0000ms, 0494ms total)
TB38C 000:791 JLINK_WriteReg(CFBP, 0x00000000)  returns 0x00 (0000ms, 0494ms total)
TB38C 000:791 JLINK_SetBPEx(Addr = 0x20000000, Type = 0xFFFFFFF2) -- CPU_ReadMem(2 bytes @ 0x20000000)  returns 0x00000001 (0000ms, 0494ms total)
TB38C 000:791 JLINK_Go() -- CPU_WriteMem(2 bytes @ 0x20000000) -- CPU_ReadMem(4 bytes @ 0xE0001000) -- CPU_WriteMem(4 bytes @ 0xE0002008) -- CPU_WriteMem(4 bytes @ 0xE000200C) -- CPU_WriteMem(4 bytes @ 0xE0002010) -- CPU_WriteMem(4 bytes @ 0xE0002014) -- CPU_WriteMem(4 bytes @ 0xE0002018) -- CPU_WriteMem(4 bytes @ 0xE000201C) -- CPU_WriteMem(4 bytes @ 0xE0001004) (0004ms, 0498ms total)
TB38C 000:795 JLINK_IsHalted() -- CPU_ReadMem(2 bytes @ 0x20000000)  returns TRUE (0004ms, 0502ms total)
TB38C 000:799 JLINK_ReadReg(R15 (PC))  returns 0x20000000 (0000ms, 0498ms total)
TB38C 000:799 JLINK_ClrBPEx(BPHandle = 0x00000001)  returns 0x00 (0000ms, 0498ms total)
TB38C 000:799 JLINK_ReadReg(R0)  returns 0x00000000 (0000ms, 0498ms total)
TB38C 000:800 JLINK_WriteReg(R0, 0x08000000)  returns 0x00 (0000ms, 0498ms total)
TB38C 000:800 JLINK_WriteReg(R1, 0x00B71B00)  returns 0x00 (0000ms, 0498ms total)
TB38C 000:800 JLINK_WriteReg(R2, 0x00000001)  returns 0x00 (0000ms, 0498ms total)
TB38C 000:800 JLINK_WriteReg(R3, 0x00000000)  returns 0x00 (0000ms, 0498ms total)
TB38C 000:800 JLINK_WriteReg(R4, 0x00000000)  returns 0x00 (0000ms, 0498ms total)
TB38C 000:800 JLINK_WriteReg(R5, 0x00000000)  returns 0x00 (0000ms, 0498ms total)
TB38C 000:800 JLINK_WriteReg(R6, 0x00000000)  returns 0x00 (0000ms, 0498ms total)
TB38C 000:800 JLINK_WriteReg(R7, 0x00000000)  returns 0x00 (0000ms, 0498ms total)
TB38C 000:800 JLINK_WriteReg(R8, 0x00000000)  returns 0x00 (0000ms, 0498ms total)
TB38C 000:800 JLINK_WriteReg(R9, 0x20000160)  returns 0x00 (0000ms, 0498ms total)
TB38C 000:800 JLINK_WriteReg(R10, 0x00000000)  returns 0x00 (0000ms, 0498ms total)
TB38C 000:800 JLINK_WriteReg(R11, 0x00000000)  returns 0x00 (0000ms, 0498ms total)
TB38C 000:800 JLINK_WriteReg(R12, 0x00000000)  returns 0x00 (0000ms, 0498ms total)
TB38C 000:800 JLINK_WriteReg(R13 (SP), 0x20000800)  returns 0x00 (0000ms, 0498ms total)
TB38C 000:800 JLINK_WriteReg(R14, 0x20000001)  returns 0x00 (0000ms, 0498ms total)
TB38C 000:800 JLINK_WriteReg(R15 (PC), 0x2000007C)  returns 0x00 (0000ms, 0498ms total)
TB38C 000:800 JLINK_WriteReg(XPSR, 0x01000000)  returns 0x00 (0000ms, 0498ms total)
TB38C 000:800 JLINK_WriteReg(MSP, 0x20000800)  returns 0x00 (0000ms, 0498ms total)
TB38C 000:800 JLINK_WriteReg(PSP, 0x20000800)  returns 0x00 (0000ms, 0498ms total)
TB38C 000:800 JLINK_WriteReg(CFBP, 0x00000000)  returns 0x00 (0000ms, 0498ms total)
TB38C 000:800 JLINK_SetBPEx(Addr = 0x20000000, Type = 0xFFFFFFF2)  returns 0x00000002 (0000ms, 0498ms total)
TB38C 000:800 JLINK_Go() -- CPU_ReadMem(4 bytes @ 0xE0001000) (0002ms, 0500ms total)
TB38C 000:802 JLINK_IsHalted()  returns FALSE (0000ms, 0500ms total)
TB38C 000:984 JLINK_IsHalted() -- CPU_ReadMem(2 bytes @ 0x20000000)  returns TRUE (0004ms, 0504ms total)
TB38C 000:988 JLINK_ReadReg(R15 (PC))  returns 0x20000000 (0000ms, 0500ms total)
TB38C 000:988 JLINK_ClrBPEx(BPHandle = 0x00000002)  returns 0x00 (0000ms, 0500ms total)
TB38C 000:988 JLINK_ReadReg(R0)  returns 0x00000000 (0000ms, 0500ms total)
TB38C 001:041 JLINK_WriteReg(R0, 0x00000001)  returns 0x00 (0000ms, 0500ms total)
TB38C 001:041 JLINK_WriteReg(R1, 0x00B71B00)  returns 0x00 (0000ms, 0500ms total)
TB38C 001:041 JLINK_WriteReg(R2, 0x00000001)  returns 0x00 (0000ms, 0500ms total)
TB38C 001:041 JLINK_WriteReg(R3, 0x00000000)  returns 0x00 (0000ms, 0500ms total)
TB38C 001:041 JLINK_WriteReg(R4, 0x00000000)  returns 0x00 (0000ms, 0500ms total)
TB38C 001:041 JLINK_WriteReg(R5, 0x00000000)  returns 0x00 (0000ms, 0500ms total)
TB38C 001:041 JLINK_WriteReg(R6, 0x00000000)  returns 0x00 (0000ms, 0500ms total)
TB38C 001:041 JLINK_WriteReg(R7, 0x00000000)  returns 0x00 (0000ms, 0500ms total)
TB38C 001:041 JLINK_WriteReg(R8, 0x00000000)  returns 0x00 (0000ms, 0500ms total)
TB38C 001:041 JLINK_WriteReg(R9, 0x20000160)  returns 0x00 (0000ms, 0500ms total)
TB38C 001:041 JLINK_WriteReg(R10, 0x00000000)  returns 0x00 (0000ms, 0500ms total)
TB38C 001:041 JLINK_WriteReg(R11, 0x00000000)  returns 0x00 (0000ms, 0500ms total)
TB38C 001:041 JLINK_WriteReg(R12, 0x00000000)  returns 0x00 (0000ms, 0500ms total)
TB38C 001:041 JLINK_WriteReg(R13 (SP), 0x20000800)  returns 0x00 (0000ms, 0500ms total)
TB38C 001:041 JLINK_WriteReg(R14, 0x20000001)  returns 0x00 (0000ms, 0500ms total)
TB38C 001:041 JLINK_WriteReg(R15 (PC), 0x2000006A)  returns 0x00 (0000ms, 0500ms total)
TB38C 001:041 JLINK_WriteReg(XPSR, 0x01000000)  returns 0x00 (0001ms, 0501ms total)
TB38C 001:042 JLINK_WriteReg(MSP, 0x20000800)  returns 0x00 (0000ms, 0501ms total)
TB38C 001:042 JLINK_WriteReg(PSP, 0x20000800)  returns 0x00 (0000ms, 0501ms total)
TB38C 001:042 JLINK_WriteReg(CFBP, 0x00000000)  returns 0x00 (0000ms, 0501ms total)
TB38C 001:042 JLINK_SetBPEx(Addr = 0x20000000, Type = 0xFFFFFFF2)  returns 0x00000003 (0000ms, 0501ms total)
TB38C 001:042 JLINK_Go() -- CPU_ReadMem(4 bytes @ 0xE0001000) (0001ms, 0502ms total)
TB38C 001:043 JLINK_IsHalted() -- CPU_ReadMem(2 bytes @ 0x20000000)  returns TRUE (0004ms, 0506ms total)
TB38C 001:047 JLINK_ReadReg(R15 (PC))  returns 0x20000000 (0000ms, 0502ms total)
TB38C 001:047 JLINK_ClrBPEx(BPHandle = 0x00000003)  returns 0x00 (0000ms, 0502ms total)
TB38C 001:047 JLINK_ReadReg(R0)  returns 0x00000000 (0000ms, 0502ms total)
TB38C 001:059 JLINK_WriteMem(0x20000000, 0x0164 Bytes, ...) - Data: 00 BE 0A E0 0D 78 2D 06 68 40 08 24 40 00 00 D3 ... -- CPU_WriteMem(356 bytes @ 0x20000000)  returns 0x164 (0002ms, 0504ms total)
TB38C 001:061 JLINK_WriteReg(R0, 0x08000000)  returns 0x00 (0000ms, 0504ms total)
TB38C 001:061 JLINK_WriteReg(R1, 0x00B71B00)  returns 0x00 (0001ms, 0505ms total)
TB38C 001:062 JLINK_WriteReg(R2, 0x00000002)  returns 0x00 (0000ms, 0505ms total)
TB38C 001:062 JLINK_WriteReg(R3, 0x00000000)  returns 0x00 (0000ms, 0505ms total)
TB38C 001:062 JLINK_WriteReg(R4, 0x00000000)  returns 0x00 (0000ms, 0505ms total)
TB38C 001:062 JLINK_WriteReg(R5, 0x00000000)  returns 0x00 (0000ms, 0505ms total)
TB38C 001:062 JLINK_WriteReg(R6, 0x00000000)  returns 0x00 (0000ms, 0505ms total)
TB38C 001:062 JLINK_WriteReg(R7, 0x00000000)  returns 0x00 (0000ms, 0505ms total)
TB38C 001:062 JLINK_WriteReg(R8, 0x00000000)  returns 0x00 (0000ms, 0505ms total)
TB38C 001:062 JLINK_WriteReg(R9, 0x20000160)  returns 0x00 (0000ms, 0505ms total)
TB38C 001:062 JLINK_WriteReg(R10, 0x00000000)  returns 0x00 (0000ms, 0505ms total)
TB38C 001:062 JLINK_WriteReg(R11, 0x00000000)  returns 0x00 (0000ms, 0505ms total)
TB38C 001:062 JLINK_WriteReg(R12, 0x00000000)  returns 0x00 (0000ms, 0505ms total)
TB38C 001:062 JLINK_WriteReg(R13 (SP), 0x20000800)  returns 0x00 (0000ms, 0505ms total)
TB38C 001:062 JLINK_WriteReg(R14, 0x20000001)  returns 0x00 (0000ms, 0505ms total)
TB38C 001:062 JLINK_WriteReg(R15 (PC), 0x20000038)  returns 0x00 (0000ms, 0505ms total)
TB38C 001:062 JLINK_WriteReg(XPSR, 0x01000000)  returns 0x00 (0000ms, 0505ms total)
TB38C 001:062 JLINK_WriteReg(MSP, 0x20000800)  returns 0x00 (0000ms, 0505ms total)
TB38C 001:062 JLINK_WriteReg(PSP, 0x20000800)  returns 0x00 (0000ms, 0505ms total)
TB38C 001:062 JLINK_WriteReg(CFBP, 0x00000000)  returns 0x00 (0000ms, 0505ms total)
TB38C 001:062 JLINK_SetBPEx(Addr = 0x20000000, Type = 0xFFFFFFF2) -- CPU_ReadMem(2 bytes @ 0x20000000)  returns 0x00000004 (0000ms, 0505ms total)
TB38C 001:062 JLINK_Go() -- CPU_WriteMem(2 bytes @ 0x20000000) -- CPU_ReadMem(4 bytes @ 0xE0001000) (0002ms, 0507ms total)
TB38C 001:064 JLINK_IsHalted() -- CPU_ReadMem(2 bytes @ 0x20000000)  returns TRUE (0004ms, 0511ms total)
TB38C 001:068 JLINK_ReadReg(R15 (PC))  returns 0x20000000 (0000ms, 0507ms total)
TB38C 001:068 JLINK_ClrBPEx(BPHandle = 0x00000004)  returns 0x00 (0000ms, 0507ms total)
TB38C 001:068 JLINK_ReadReg(R0)  returns 0x00000000 (0000ms, 0507ms total)
TB38C 001:068 JLINK_WriteMem(0x20000164, 0x0400 Bytes, ...) - Data: 28 F6 00 20 F9 2E 00 08 91 2F 00 08 93 2F 00 08 ... -- CPU_WriteMem(1024 bytes @ 0x20000164)  returns 0x400 (0006ms, 0513ms total)
TB38C 001:075 JLINK_WriteReg(R0, 0x08000000)  returns 0x00 (0000ms, 0513ms total)
TB38C 001:075 JLINK_WriteReg(R1, 0x00000400)  returns 0x00 (0000ms, 0513ms total)
TB38C 001:075 JLINK_WriteReg(R2, 0x20000164)  returns 0x00 (0000ms, 0513ms total)
TB38C 001:075 JLINK_WriteReg(R3, 0x00000000)  returns 0x00 (0000ms, 0513ms total)
TB38C 001:075 JLINK_WriteReg(R4, 0x00000000)  returns 0x00 (0000ms, 0513ms total)
TB38C 001:075 JLINK_WriteReg(R5, 0x00000000)  returns 0x00 (0000ms, 0513ms total)
TB38C 001:075 JLINK_WriteReg(R6, 0x00000000)  returns 0x00 (0000ms, 0513ms total)
TB38C 001:075 JLINK_WriteReg(R7, 0x00000000)  returns 0x00 (0000ms, 0513ms total)
TB38C 001:075 JLINK_WriteReg(R8, 0x00000000)  returns 0x00 (0000ms, 0513ms total)
TB38C 001:075 JLINK_WriteReg(R9, 0x20000160)  returns 0x00 (0000ms, 0513ms total)
TB38C 001:075 JLINK_WriteReg(R10, 0x00000000)  returns 0x00 (0000ms, 0513ms total)
TB38C 001:075 JLINK_WriteReg(R11, 0x00000000)  returns 0x00 (0000ms, 0513ms total)
TB38C 001:075 JLINK_WriteReg(R12, 0x00000000)  returns 0x00 (0000ms, 0513ms total)
TB38C 001:075 JLINK_WriteReg(R13 (SP), 0x20000800)  returns 0x00 (0000ms, 0513ms total)
TB38C 001:075 JLINK_WriteReg(R14, 0x20000001)  returns 0x00 (0000ms, 0513ms total)
TB38C 001:075 JLINK_WriteReg(R15 (PC), 0x200000F4)  returns 0x00 (0000ms, 0513ms total)
TB38C 001:075 JLINK_WriteReg(XPSR, 0x01000000)  returns 0x00 (0000ms, 0513ms total)
TB38C 001:075 JLINK_WriteReg(MSP, 0x20000800)  returns 0x00 (0000ms, 0513ms total)
TB38C 001:075 JLINK_WriteReg(PSP, 0x20000800)  returns 0x00 (0000ms, 0513ms total)
TB38C 001:075 JLINK_WriteReg(CFBP, 0x00000000)  returns 0x00 (0000ms, 0513ms total)
TB38C 001:075 JLINK_SetBPEx(Addr = 0x20000000, Type = 0xFFFFFFF2)  returns 0x00000005 (0000ms, 0513ms total)
TB38C 001:075 JLINK_Go() -- CPU_ReadMem(4 bytes @ 0xE0001000) (0002ms, 0515ms total)
TB38C 001:077 JLINK_IsHalted()  returns FALSE (0000ms, 0515ms total)
TB38C 001:100 JLINK_IsHalted()  returns FALSE (0000ms, 0515ms total)
TB38C 001:102 JLINK_IsHalted()  returns FALSE (0000ms, 0515ms total)
TB38C 001:104 JLINK_IsHalted()  returns FALSE (0000ms, 0515ms total)
TB38C 001:106 JLINK_IsHalted()  returns FALSE (0000ms, 0515ms total)
TB38C 001:108 JLINK_IsHalted() -- CPU_ReadMem(2 bytes @ 0x20000000)  returns TRUE (0003ms, 0518ms total)
TB38C 001:111 JLINK_ReadReg(R15 (PC))  returns 0x20000000 (0000ms, 0515ms total)
TB38C 001:111 JLINK_ClrBPEx(BPHandle = 0x00000005)  returns 0x00 (0000ms, 0515ms total)
TB38C 001:111 JLINK_ReadReg(R0)  returns 0x00000000 (0000ms, 0515ms total)
TB38C 001:113 JLINK_WriteMem(0x20000164, 0x0400 Bytes, ...) - Data: 82 89 0A 43 82 81 70 47 21 B1 82 89 42 F0 02 02 ... -- CPU_WriteMem(1024 bytes @ 0x20000164)  returns 0x400 (0006ms, 0521ms total)
TB38C 001:120 JLINK_WriteReg(R0, 0x08000400)  returns 0x00 (0000ms, 0522ms total)
TB38C 001:120 JLINK_WriteReg(R1, 0x00000400)  returns 0x00 (0000ms, 0522ms total)
TB38C 001:120 JLINK_WriteReg(R2, 0x20000164)  returns 0x00 (0000ms, 0522ms total)
TB38C 001:120 JLINK_WriteReg(R3, 0x00000000)  returns 0x00 (0000ms, 0522ms total)
TB38C 001:120 JLINK_WriteReg(R4, 0x00000000)  returns 0x00 (0000ms, 0522ms total)
TB38C 001:120 JLINK_WriteReg(R5, 0x00000000)  returns 0x00 (0000ms, 0522ms total)
TB38C 001:120 JLINK_WriteReg(R6, 0x00000000)  returns 0x00 (0000ms, 0522ms total)
TB38C 001:120 JLINK_WriteReg(R7, 0x00000000)  returns 0x00 (0000ms, 0522ms total)
TB38C 001:120 JLINK_WriteReg(R8, 0x00000000)  returns 0x00 (0000ms, 0522ms total)
TB38C 001:120 JLINK_WriteReg(R9, 0x20000160)  returns 0x00 (0000ms, 0522ms total)
TB38C 001:120 JLINK_WriteReg(R10, 0x00000000)  returns 0x00 (0000ms, 0522ms total)
TB38C 001:120 JLINK_WriteReg(R11, 0x00000000)  returns 0x00 (0000ms, 0522ms total)
TB38C 001:120 JLINK_WriteReg(R12, 0x00000000)  returns 0x00 (0000ms, 0522ms total)
TB38C 001:120 JLINK_WriteReg(R13 (SP), 0x20000800)  returns 0x00 (0000ms, 0522ms total)
TB38C 001:120 JLINK_WriteReg(R14, 0x20000001)  returns 0x00 (0000ms, 0522ms total)
TB38C 001:120 JLINK_WriteReg(R15 (PC), 0x200000F4)  returns 0x00 (0000ms, 0522ms total)
TB38C 001:120 JLINK_WriteReg(XPSR, 0x01000000)  returns 0x00 (0000ms, 0522ms total)
TB38C 001:120 JLINK_WriteReg(MSP, 0x20000800)  returns 0x00 (0000ms, 0522ms total)
TB38C 001:120 JLINK_WriteReg(PSP, 0x20000800)  returns 0x00 (0000ms, 0522ms total)
TB38C 001:120 JLINK_WriteReg(CFBP, 0x00000000)  returns 0x00 (0000ms, 0522ms total)
TB38C 001:120 JLINK_SetBPEx(Addr = 0x20000000, Type = 0xFFFFFFF2)  returns 0x00000006 (0000ms, 0522ms total)
TB38C 001:120 JLINK_Go() -- CPU_ReadMem(4 bytes @ 0xE0001000) (0002ms, 0524ms total)
TB38C 001:122 JLINK_IsHalted()  returns FALSE (0000ms, 0524ms total)
TB38C 001:132 JLINK_IsHalted()  returns FALSE (0000ms, 0524ms total)
TB38C 001:133 JLINK_IsHalted()  returns FALSE (0000ms, 0524ms total)
TB38C 001:135 JLINK_IsHalted()  returns FALSE (0000ms, 0524ms total)
TB38C 001:137 JLINK_IsHalted()  returns FALSE (0000ms, 0524ms total)
TB38C 001:138 JLINK_IsHalted()  returns FALSE (0000ms, 0524ms total)
TB38C 001:140 JLINK_IsHalted()  returns FALSE (0000ms, 0524ms total)
TB38C 001:142 JLINK_IsHalted()  returns FALSE (0000ms, 0524ms total)
TB38C 001:147 JLINK_IsHalted()  returns FALSE (0000ms, 0524ms total)
TB38C 001:149 JLINK_IsHalted()  returns FALSE (0000ms, 0524ms total)
TB38C 001:151 JLINK_IsHalted()  returns FALSE (0000ms, 0524ms total)
TB38C 001:153 JLINK_IsHalted() -- CPU_ReadMem(2 bytes @ 0x20000000)  returns TRUE (0003ms, 0527ms total)
TB38C 001:156 JLINK_ReadReg(R15 (PC))  returns 0x20000000 (0000ms, 0524ms total)
TB38C 001:156 JLINK_ClrBPEx(BPHandle = 0x00000006)  returns 0x00 (0000ms, 0524ms total)
TB38C 001:156 JLINK_ReadReg(R0)  returns 0x00000000 (0000ms, 0524ms total)
TB38C 001:157 JLINK_WriteMem(0x20000164, 0x0400 Bytes, ...) - Data: 5C 48 00 69 41 F6 FE 71 08 40 5A 49 08 61 20 46 ... -- CPU_WriteMem(1024 bytes @ 0x20000164)  returns 0x400 (0006ms, 0530ms total)
TB38C 001:163 JLINK_WriteReg(R0, 0x08000800)  returns 0x00 (0000ms, 0530ms total)
TB38C 001:163 JLINK_WriteReg(R1, 0x00000400)  returns 0x00 (0000ms, 0530ms total)
TB38C 001:163 JLINK_WriteReg(R2, 0x20000164)  returns 0x00 (0000ms, 0530ms total)
TB38C 001:163 JLINK_WriteReg(R3, 0x00000000)  returns 0x00 (0000ms, 0530ms total)
TB38C 001:163 JLINK_WriteReg(R4, 0x00000000)  returns 0x00 (0000ms, 0530ms total)
TB38C 001:163 JLINK_WriteReg(R5, 0x00000000)  returns 0x00 (0000ms, 0530ms total)
TB38C 001:163 JLINK_WriteReg(R6, 0x00000000)  returns 0x00 (0000ms, 0530ms total)
TB38C 001:163 JLINK_WriteReg(R7, 0x00000000)  returns 0x00 (0000ms, 0530ms total)
TB38C 001:163 JLINK_WriteReg(R8, 0x00000000)  returns 0x00 (0000ms, 0530ms total)
TB38C 001:163 JLINK_WriteReg(R9, 0x20000160)  returns 0x00 (0000ms, 0530ms total)
TB38C 001:163 JLINK_WriteReg(R10, 0x00000000)  returns 0x00 (0000ms, 0530ms total)
TB38C 001:163 JLINK_WriteReg(R11, 0x00000000)  returns 0x00 (0000ms, 0530ms total)
TB38C 001:163 JLINK_WriteReg(R12, 0x00000000)  returns 0x00 (0000ms, 0530ms total)
TB38C 001:163 JLINK_WriteReg(R13 (SP), 0x20000800)  returns 0x00 (0000ms, 0530ms total)
TB38C 001:163 JLINK_WriteReg(R14, 0x20000001)  returns 0x00 (0000ms, 0530ms total)
TB38C 001:163 JLINK_WriteReg(R15 (PC), 0x200000F4)  returns 0x00 (0000ms, 0530ms total)
TB38C 001:163 JLINK_WriteReg(XPSR, 0x01000000)  returns 0x00 (0000ms, 0530ms total)
TB38C 001:163 JLINK_WriteReg(MSP, 0x20000800)  returns 0x00 (0000ms, 0530ms total)
TB38C 001:163 JLINK_WriteReg(PSP, 0x20000800)  returns 0x00 (0000ms, 0530ms total)
TB38C 001:163 JLINK_WriteReg(CFBP, 0x00000000)  returns 0x00 (0000ms, 0530ms total)
TB38C 001:163 JLINK_SetBPEx(Addr = 0x20000000, Type = 0xFFFFFFF2)  returns 0x00000007 (0000ms, 0530ms total)
TB38C 001:163 JLINK_Go() -- CPU_ReadMem(4 bytes @ 0xE0001000) (0002ms, 0532ms total)
TB38C 001:165 JLINK_IsHalted()  returns FALSE (0000ms, 0532ms total)
TB38C 001:171 JLINK_IsHalted()  returns FALSE (0000ms, 0532ms total)
TB38C 001:175 JLINK_IsHalted()  returns FALSE (0000ms, 0532ms total)
TB38C 001:177 JLINK_IsHalted()  returns FALSE (0000ms, 0532ms total)
TB38C 001:179 JLINK_IsHalted()  returns FALSE (0000ms, 0532ms total)
TB38C 001:181 JLINK_IsHalted()  returns FALSE (0000ms, 0532ms total)
TB38C 001:183 JLINK_IsHalted()  returns FALSE (0000ms, 0532ms total)
TB38C 001:185 JLINK_IsHalted()  returns FALSE (0000ms, 0532ms total)
TB38C 001:187 JLINK_IsHalted()  returns FALSE (0000ms, 0532ms total)
TB38C 001:189 JLINK_IsHalted()  returns FALSE (0000ms, 0532ms total)
TB38C 001:196 JLINK_IsHalted() -- CPU_ReadMem(2 bytes @ 0x20000000)  returns TRUE (0003ms, 0535ms total)
TB38C 001:199 JLINK_ReadReg(R15 (PC))  returns 0x20000000 (0000ms, 0532ms total)
TB38C 001:199 JLINK_ClrBPEx(BPHandle = 0x00000007)  returns 0x00 (0000ms, 0532ms total)
TB38C 001:199 JLINK_ReadReg(R0)  returns 0x00000000 (0000ms, 0532ms total)
TB38C 001:200 JLINK_WriteMem(0x20000164, 0x0400 Bytes, ...) - Data: 48 0F 05 D1 4F F0 01 0C 0C FA 00 FC C2 F8 10 C0 ... -- CPU_WriteMem(1024 bytes @ 0x20000164)  returns 0x400 (0006ms, 0538ms total)
TB38C 001:206 JLINK_WriteReg(R0, 0x08000C00)  returns 0x00 (0000ms, 0538ms total)
TB38C 001:206 JLINK_WriteReg(R1, 0x00000400)  returns 0x00 (0000ms, 0538ms total)
TB38C 001:206 JLINK_WriteReg(R2, 0x20000164)  returns 0x00 (0000ms, 0538ms total)
TB38C 001:206 JLINK_WriteReg(R3, 0x00000000)  returns 0x00 (0000ms, 0538ms total)
TB38C 001:206 JLINK_WriteReg(R4, 0x00000000)  returns 0x00 (0000ms, 0538ms total)
TB38C 001:206 JLINK_WriteReg(R5, 0x00000000)  returns 0x00 (0000ms, 0538ms total)
TB38C 001:206 JLINK_WriteReg(R6, 0x00000000)  returns 0x00 (0000ms, 0538ms total)
TB38C 001:206 JLINK_WriteReg(R7, 0x00000000)  returns 0x00 (0000ms, 0538ms total)
TB38C 001:206 JLINK_WriteReg(R8, 0x00000000)  returns 0x00 (0000ms, 0538ms total)
TB38C 001:206 JLINK_WriteReg(R9, 0x20000160)  returns 0x00 (0000ms, 0538ms total)
TB38C 001:206 JLINK_WriteReg(R10, 0x00000000)  returns 0x00 (0001ms, 0539ms total)
TB38C 001:207 JLINK_WriteReg(R11, 0x00000000)  returns 0x00 (0000ms, 0539ms total)
TB38C 001:207 JLINK_WriteReg(R12, 0x00000000)  returns 0x00 (0000ms, 0539ms total)
TB38C 001:207 JLINK_WriteReg(R13 (SP), 0x20000800)  returns 0x00 (0000ms, 0539ms total)
TB38C 001:207 JLINK_WriteReg(R14, 0x20000001)  returns 0x00 (0000ms, 0539ms total)
TB38C 001:207 JLINK_WriteReg(R15 (PC), 0x200000F4)  returns 0x00 (0000ms, 0539ms total)
TB38C 001:207 JLINK_WriteReg(XPSR, 0x01000000)  returns 0x00 (0000ms, 0539ms total)
TB38C 001:207 JLINK_WriteReg(MSP, 0x20000800)  returns 0x00 (0000ms, 0539ms total)
TB38C 001:207 JLINK_WriteReg(PSP, 0x20000800)  returns 0x00 (0000ms, 0539ms total)
TB38C 001:207 JLINK_WriteReg(CFBP, 0x00000000)  returns 0x00 (0000ms, 0539ms total)
TB38C 001:207 JLINK_SetBPEx(Addr = 0x20000000, Type = 0xFFFFFFF2)  returns 0x00000008 (0000ms, 0539ms total)
TB38C 001:207 JLINK_Go() -- CPU_ReadMem(4 bytes @ 0xE0001000) (0001ms, 0540ms total)
TB38C 001:208 JLINK_IsHalted()  returns FALSE (0001ms, 0541ms total)
TB38C 001:213 JLINK_IsHalted()  returns FALSE (0000ms, 0540ms total)
TB38C 001:215 JLINK_IsHalted()  returns FALSE (0000ms, 0540ms total)
TB38C 001:216 JLINK_IsHalted()  returns FALSE (0000ms, 0540ms total)
TB38C 001:218 JLINK_IsHalted()  returns FALSE (0000ms, 0540ms total)
TB38C 001:220 JLINK_IsHalted()  returns FALSE (0000ms, 0540ms total)
TB38C 001:225 JLINK_IsHalted()  returns FALSE (0000ms, 0540ms total)
TB38C 001:227 JLINK_IsHalted()  returns FALSE (0000ms, 0540ms total)
TB38C 001:228 JLINK_IsHalted()  returns FALSE (0000ms, 0540ms total)
TB38C 001:230 JLINK_IsHalted()  returns FALSE (0000ms, 0540ms total)
TB38C 001:232 JLINK_IsHalted()  returns FALSE (0000ms, 0540ms total)
TB38C 001:234 JLINK_IsHalted()  returns FALSE (0000ms, 0540ms total)
TB38C 001:236 JLINK_IsHalted()  returns FALSE (0000ms, 0540ms total)
TB38C 001:238 JLINK_IsHalted()  returns FALSE (0000ms, 0540ms total)
TB38C 001:240 JLINK_IsHalted() -- CPU_ReadMem(2 bytes @ 0x20000000)  returns TRUE (0003ms, 0543ms total)
TB38C 001:243 JLINK_ReadReg(R15 (PC))  returns 0x20000000 (0000ms, 0540ms total)
TB38C 001:243 JLINK_ClrBPEx(BPHandle = 0x00000008)  returns 0x00 (0000ms, 0540ms total)
TB38C 001:243 JLINK_ReadReg(R0)  returns 0x00000000 (0000ms, 0540ms total)
TB38C 001:244 JLINK_WriteMem(0x20000164, 0x0400 Bytes, ...) - Data: 67 4A 0C 32 12 68 82 43 65 4B 0C 33 1A 60 70 47 ... -- CPU_WriteMem(1024 bytes @ 0x20000164)  returns 0x400 (0006ms, 0546ms total)
TB38C 001:250 JLINK_WriteReg(R0, 0x08001000)  returns 0x00 (0000ms, 0546ms total)
TB38C 001:250 JLINK_WriteReg(R1, 0x00000400)  returns 0x00 (0000ms, 0546ms total)
TB38C 001:250 JLINK_WriteReg(R2, 0x20000164)  returns 0x00 (0000ms, 0546ms total)
TB38C 001:250 JLINK_WriteReg(R3, 0x00000000)  returns 0x00 (0000ms, 0546ms total)
TB38C 001:250 JLINK_WriteReg(R4, 0x00000000)  returns 0x00 (0000ms, 0546ms total)
TB38C 001:250 JLINK_WriteReg(R5, 0x00000000)  returns 0x00 (0000ms, 0546ms total)
TB38C 001:250 JLINK_WriteReg(R6, 0x00000000)  returns 0x00 (0000ms, 0546ms total)
TB38C 001:250 JLINK_WriteReg(R7, 0x00000000)  returns 0x00 (0000ms, 0546ms total)
TB38C 001:250 JLINK_WriteReg(R8, 0x00000000)  returns 0x00 (0000ms, 0546ms total)
TB38C 001:250 JLINK_WriteReg(R9, 0x20000160)  returns 0x00 (0000ms, 0546ms total)
TB38C 001:250 JLINK_WriteReg(R10, 0x00000000)  returns 0x00 (0000ms, 0546ms total)
TB38C 001:250 JLINK_WriteReg(R11, 0x00000000)  returns 0x00 (0000ms, 0546ms total)
TB38C 001:250 JLINK_WriteReg(R12, 0x00000000)  returns 0x00 (0000ms, 0546ms total)
TB38C 001:250 JLINK_WriteReg(R13 (SP), 0x20000800)  returns 0x00 (0000ms, 0546ms total)
TB38C 001:250 JLINK_WriteReg(R14, 0x20000001)  returns 0x00 (0000ms, 0546ms total)
TB38C 001:250 JLINK_WriteReg(R15 (PC), 0x200000F4)  returns 0x00 (0000ms, 0546ms total)
TB38C 001:251 JLINK_WriteReg(XPSR, 0x01000000)  returns 0x00 (0000ms, 0547ms total)
TB38C 001:251 JLINK_WriteReg(MSP, 0x20000800)  returns 0x00 (0000ms, 0547ms total)
TB38C 001:251 JLINK_WriteReg(PSP, 0x20000800)  returns 0x00 (0000ms, 0547ms total)
TB38C 001:251 JLINK_WriteReg(CFBP, 0x00000000)  returns 0x00 (0000ms, 0547ms total)
TB38C 001:251 JLINK_SetBPEx(Addr = 0x20000000, Type = 0xFFFFFFF2)  returns 0x00000009 (0000ms, 0547ms total)
TB38C 001:251 JLINK_Go() -- CPU_ReadMem(4 bytes @ 0xE0001000) (0001ms, 0548ms total)
TB38C 001:252 JLINK_IsHalted()  returns FALSE (0001ms, 0549ms total)
TB38C 001:257 JLINK_IsHalted()  returns FALSE (0000ms, 0548ms total)
TB38C 001:259 JLINK_IsHalted()  returns FALSE (0000ms, 0548ms total)
TB38C 001:261 JLINK_IsHalted()  returns FALSE (0000ms, 0548ms total)
TB38C 001:263 JLINK_IsHalted()  returns FALSE (0000ms, 0548ms total)
TB38C 001:265 JLINK_IsHalted()  returns FALSE (0000ms, 0548ms total)
TB38C 001:266 JLINK_IsHalted()  returns FALSE (0001ms, 0549ms total)
TB38C 001:276 JLINK_IsHalted()  returns FALSE (0000ms, 0548ms total)
TB38C 001:278 JLINK_IsHalted()  returns FALSE (0000ms, 0548ms total)
TB38C 001:280 JLINK_IsHalted()  returns FALSE (0000ms, 0548ms total)
TB38C 001:282 JLINK_IsHalted()  returns FALSE (0000ms, 0548ms total)
TB38C 001:284 JLINK_IsHalted() -- CPU_ReadMem(2 bytes @ 0x20000000)  returns TRUE (0003ms, 0551ms total)
TB38C 001:287 JLINK_ReadReg(R15 (PC))  returns 0x20000000 (0000ms, 0548ms total)
TB38C 001:287 JLINK_ClrBPEx(BPHandle = 0x00000009)  returns 0x00 (0000ms, 0548ms total)
TB38C 001:287 JLINK_ReadReg(R0)  returns 0x00000000 (0000ms, 0548ms total)
TB38C 001:288 JLINK_WriteMem(0x20000164, 0x0400 Bytes, ...) - Data: 4C 4D 6D 68 05 F4 00 35 1D B1 52 4D 55 43 05 60 ... -- CPU_WriteMem(1024 bytes @ 0x20000164)  returns 0x400 (0006ms, 0554ms total)
TB38C 001:294 JLINK_WriteReg(R0, 0x08001400)  returns 0x00 (0000ms, 0554ms total)
TB38C 001:294 JLINK_WriteReg(R1, 0x00000400)  returns 0x00 (0000ms, 0554ms total)
TB38C 001:294 JLINK_WriteReg(R2, 0x20000164)  returns 0x00 (0000ms, 0554ms total)
TB38C 001:294 JLINK_WriteReg(R3, 0x00000000)  returns 0x00 (0000ms, 0554ms total)
TB38C 001:294 JLINK_WriteReg(R4, 0x00000000)  returns 0x00 (0000ms, 0554ms total)
TB38C 001:294 JLINK_WriteReg(R5, 0x00000000)  returns 0x00 (0000ms, 0554ms total)
TB38C 001:294 JLINK_WriteReg(R6, 0x00000000)  returns 0x00 (0000ms, 0554ms total)
TB38C 001:294 JLINK_WriteReg(R7, 0x00000000)  returns 0x00 (0000ms, 0554ms total)
TB38C 001:294 JLINK_WriteReg(R8, 0x00000000)  returns 0x00 (0000ms, 0554ms total)
TB38C 001:294 JLINK_WriteReg(R9, 0x20000160)  returns 0x00 (0000ms, 0554ms total)
TB38C 001:294 JLINK_WriteReg(R10, 0x00000000)  returns 0x00 (0000ms, 0554ms total)
TB38C 001:294 JLINK_WriteReg(R11, 0x00000000)  returns 0x00 (0000ms, 0554ms total)
TB38C 001:294 JLINK_WriteReg(R12, 0x00000000)  returns 0x00 (0001ms, 0555ms total)
TB38C 001:295 JLINK_WriteReg(R13 (SP), 0x20000800)  returns 0x00 (0000ms, 0555ms total)
TB38C 001:295 JLINK_WriteReg(R14, 0x20000001)  returns 0x00 (0000ms, 0555ms total)
TB38C 001:295 JLINK_WriteReg(R15 (PC), 0x200000F4)  returns 0x00 (0000ms, 0555ms total)
TB38C 001:295 JLINK_WriteReg(XPSR, 0x01000000)  returns 0x00 (0000ms, 0555ms total)
TB38C 001:295 JLINK_WriteReg(MSP, 0x20000800)  returns 0x00 (0000ms, 0555ms total)
TB38C 001:295 JLINK_WriteReg(PSP, 0x20000800)  returns 0x00 (0000ms, 0555ms total)
TB38C 001:295 JLINK_WriteReg(CFBP, 0x00000000)  returns 0x00 (0000ms, 0555ms total)
TB38C 001:295 JLINK_SetBPEx(Addr = 0x20000000, Type = 0xFFFFFFF2)  returns 0x0000000A (0000ms, 0555ms total)
TB38C 001:295 JLINK_Go() -- CPU_ReadMem(4 bytes @ 0xE0001000) (0001ms, 0556ms total)
TB38C 001:296 JLINK_IsHalted()  returns FALSE (0001ms, 0557ms total)
TB38C 001:301 JLINK_IsHalted()  returns FALSE (0000ms, 0556ms total)
TB38C 001:303 JLINK_IsHalted()  returns FALSE (0000ms, 0556ms total)
TB38C 001:308 JLINK_IsHalted()  returns FALSE (0000ms, 0556ms total)
TB38C 001:310 JLINK_IsHalted()  returns FALSE (0000ms, 0556ms total)
TB38C 001:319 JLINK_IsHalted()  returns FALSE (0000ms, 0556ms total)
TB38C 001:321 JLINK_IsHalted()  returns FALSE (0000ms, 0556ms total)
TB38C 001:323 JLINK_IsHalted()  returns FALSE (0000ms, 0556ms total)
TB38C 001:325 JLINK_IsHalted()  returns FALSE (0000ms, 0556ms total)
TB38C 001:327 JLINK_IsHalted() -- CPU_ReadMem(2 bytes @ 0x20000000)  returns TRUE (0003ms, 0559ms total)
TB38C 001:330 JLINK_ReadReg(R15 (PC))  returns 0x20000000 (0000ms, 0556ms total)
TB38C 001:330 JLINK_ClrBPEx(BPHandle = 0x0000000A)  returns 0x00 (0000ms, 0556ms total)
TB38C 001:330 JLINK_ReadReg(R0)  returns 0x00000000 (0001ms, 0557ms total)
TB38C 001:332 JLINK_WriteMem(0x20000164, 0x0400 Bytes, ...) - Data: 0B 40 0B B1 01 20 00 E0 00 20 70 47 20 29 05 D1 ... -- CPU_WriteMem(1024 bytes @ 0x20000164)  returns 0x400 (0006ms, 0563ms total)
TB38C 001:338 JLINK_WriteReg(R0, 0x08001800)  returns 0x00 (0000ms, 0563ms total)
TB38C 001:338 JLINK_WriteReg(R1, 0x00000400)  returns 0x00 (0000ms, 0563ms total)
TB38C 001:338 JLINK_WriteReg(R2, 0x20000164)  returns 0x00 (0000ms, 0563ms total)
TB38C 001:338 JLINK_WriteReg(R3, 0x00000000)  returns 0x00 (0000ms, 0563ms total)
TB38C 001:338 JLINK_WriteReg(R4, 0x00000000)  returns 0x00 (0000ms, 0563ms total)
TB38C 001:338 JLINK_WriteReg(R5, 0x00000000)  returns 0x00 (0000ms, 0563ms total)
TB38C 001:338 JLINK_WriteReg(R6, 0x00000000)  returns 0x00 (0000ms, 0563ms total)
TB38C 001:338 JLINK_WriteReg(R7, 0x00000000)  returns 0x00 (0000ms, 0563ms total)
TB38C 001:339 JLINK_WriteReg(R8, 0x00000000)  returns 0x00 (0000ms, 0564ms total)
TB38C 001:339 JLINK_WriteReg(R9, 0x20000160)  returns 0x00 (0000ms, 0564ms total)
TB38C 001:339 JLINK_WriteReg(R10, 0x00000000)  returns 0x00 (0000ms, 0564ms total)
TB38C 001:339 JLINK_WriteReg(R11, 0x00000000)  returns 0x00 (0000ms, 0564ms total)
TB38C 001:339 JLINK_WriteReg(R12, 0x00000000)  returns 0x00 (0000ms, 0564ms total)
TB38C 001:339 JLINK_WriteReg(R13 (SP), 0x20000800)  returns 0x00 (0000ms, 0564ms total)
TB38C 001:339 JLINK_WriteReg(R14, 0x20000001)  returns 0x00 (0000ms, 0564ms total)
TB38C 001:339 JLINK_WriteReg(R15 (PC), 0x200000F4)  returns 0x00 (0000ms, 0564ms total)
TB38C 001:339 JLINK_WriteReg(XPSR, 0x01000000)  returns 0x00 (0000ms, 0564ms total)
TB38C 001:339 JLINK_WriteReg(MSP, 0x20000800)  returns 0x00 (0000ms, 0564ms total)
TB38C 001:339 JLINK_WriteReg(PSP, 0x20000800)  returns 0x00 (0000ms, 0564ms total)
TB38C 001:339 JLINK_WriteReg(CFBP, 0x00000000)  returns 0x00 (0000ms, 0564ms total)
TB38C 001:339 JLINK_SetBPEx(Addr = 0x20000000, Type = 0xFFFFFFF2)  returns 0x0000000B (0000ms, 0564ms total)
TB38C 001:339 JLINK_Go() -- CPU_ReadMem(4 bytes @ 0xE0001000) (0001ms, 0565ms total)
TB38C 001:340 JLINK_IsHalted()  returns FALSE (0001ms, 0566ms total)
TB38C 001:349 JLINK_IsHalted()  returns FALSE (0000ms, 0565ms total)
TB38C 001:351 JLINK_IsHalted()  returns FALSE (0000ms, 0565ms total)
TB38C 001:353 JLINK_IsHalted()  returns FALSE (0000ms, 0565ms total)
TB38C 001:354 JLINK_IsHalted()  returns FALSE (0000ms, 0565ms total)
TB38C 001:356 JLINK_IsHalted()  returns FALSE (0000ms, 0565ms total)
TB38C 001:358 JLINK_IsHalted()  returns FALSE (0000ms, 0565ms total)
TB38C 001:360 JLINK_IsHalted()  returns FALSE (0000ms, 0565ms total)
TB38C 001:362 JLINK_IsHalted()  returns FALSE (0000ms, 0565ms total)
TB38C 001:364 JLINK_IsHalted()  returns FALSE (0000ms, 0565ms total)
TB38C 001:370 JLINK_IsHalted()  returns FALSE (0000ms, 0565ms total)
TB38C 001:372 JLINK_IsHalted() -- CPU_ReadMem(2 bytes @ 0x20000000)  returns TRUE (0003ms, 0568ms total)
TB38C 001:375 JLINK_ReadReg(R15 (PC))  returns 0x20000000 (0000ms, 0565ms total)
TB38C 001:375 JLINK_ClrBPEx(BPHandle = 0x0000000B)  returns 0x00 (0000ms, 0565ms total)
TB38C 001:375 JLINK_ReadReg(R0)  returns 0x00000000 (0000ms, 0565ms total)
TB38C 001:377 JLINK_WriteMem(0x20000164, 0x0400 Bytes, ...) - Data: 4E F6 FF 76 35 40 05 84 02 8C 83 88 84 8B 48 F6 ... -- CPU_WriteMem(1024 bytes @ 0x20000164)  returns 0x400 (0006ms, 0571ms total)
TB38C 001:383 JLINK_WriteReg(R0, 0x08001C00)  returns 0x00 (0000ms, 0571ms total)
TB38C 001:383 JLINK_WriteReg(R1, 0x00000400)  returns 0x00 (0000ms, 0571ms total)
TB38C 001:383 JLINK_WriteReg(R2, 0x20000164)  returns 0x00 (0000ms, 0571ms total)
TB38C 001:383 JLINK_WriteReg(R3, 0x00000000)  returns 0x00 (0000ms, 0571ms total)
TB38C 001:383 JLINK_WriteReg(R4, 0x00000000)  returns 0x00 (0000ms, 0571ms total)
TB38C 001:383 JLINK_WriteReg(R5, 0x00000000)  returns 0x00 (0000ms, 0571ms total)
TB38C 001:383 JLINK_WriteReg(R6, 0x00000000)  returns 0x00 (0000ms, 0571ms total)
TB38C 001:383 JLINK_WriteReg(R7, 0x00000000)  returns 0x00 (0000ms, 0571ms total)
TB38C 001:383 JLINK_WriteReg(R8, 0x00000000)  returns 0x00 (0000ms, 0571ms total)
TB38C 001:383 JLINK_WriteReg(R9, 0x20000160)  returns 0x00 (0000ms, 0571ms total)
TB38C 001:383 JLINK_WriteReg(R10, 0x00000000)  returns 0x00 (0000ms, 0571ms total)
TB38C 001:383 JLINK_WriteReg(R11, 0x00000000)  returns 0x00 (0000ms, 0571ms total)
TB38C 001:383 JLINK_WriteReg(R12, 0x00000000)  returns 0x00 (0000ms, 0571ms total)
TB38C 001:383 JLINK_WriteReg(R13 (SP), 0x20000800)  returns 0x00 (0000ms, 0571ms total)
TB38C 001:383 JLINK_WriteReg(R14, 0x20000001)  returns 0x00 (0000ms, 0571ms total)
TB38C 001:383 JLINK_WriteReg(R15 (PC), 0x200000F4)  returns 0x00 (0000ms, 0571ms total)
TB38C 001:383 JLINK_WriteReg(XPSR, 0x01000000)  returns 0x00 (0000ms, 0571ms total)
TB38C 001:383 JLINK_WriteReg(MSP, 0x20000800)  returns 0x00 (0000ms, 0571ms total)
TB38C 001:383 JLINK_WriteReg(PSP, 0x20000800)  returns 0x00 (0000ms, 0571ms total)
TB38C 001:383 JLINK_WriteReg(CFBP, 0x00000000)  returns 0x00 (0000ms, 0571ms total)
TB38C 001:383 JLINK_SetBPEx(Addr = 0x20000000, Type = 0xFFFFFFF2)  returns 0x0000000C (0000ms, 0571ms total)
TB38C 001:383 JLINK_Go() -- CPU_ReadMem(4 bytes @ 0xE0001000) (0002ms, 0573ms total)
TB38C 001:385 JLINK_IsHalted()  returns FALSE (0000ms, 0573ms total)
TB38C 001:395 JLINK_IsHalted()  returns FALSE (0000ms, 0573ms total)
TB38C 001:397 JLINK_IsHalted()  returns FALSE (0000ms, 0573ms total)
TB38C 001:399 JLINK_IsHalted()  returns FALSE (0000ms, 0573ms total)
TB38C 001:401 JLINK_IsHalted()  returns FALSE (0000ms, 0573ms total)
TB38C 001:403 JLINK_IsHalted()  returns FALSE (0000ms, 0573ms total)
TB38C 001:405 JLINK_IsHalted()  returns FALSE (0000ms, 0573ms total)
TB38C 001:407 JLINK_IsHalted()  returns FALSE (0000ms, 0573ms total)
TB38C 001:412 JLINK_IsHalted()  returns FALSE (0000ms, 0573ms total)
TB38C 001:414 JLINK_IsHalted()  returns FALSE (0000ms, 0573ms total)
TB38C 001:416 JLINK_IsHalted() -- CPU_ReadMem(2 bytes @ 0x20000000)  returns TRUE (0003ms, 0576ms total)
TB38C 001:420 JLINK_ReadReg(R15 (PC))  returns 0x20000000 (0000ms, 0573ms total)
TB38C 001:420 JLINK_ClrBPEx(BPHandle = 0x0000000C)  returns 0x00 (0000ms, 0573ms total)
TB38C 001:420 JLINK_ReadReg(R0)  returns 0x00000000 (0000ms, 0573ms total)
TB38C 001:420 JLINK_WriteMem(0x20000164, 0x0400 Bytes, ...) - Data: 20 46 FF F7 D6 FE 29 46 20 46 FF F7 D2 FF 20 89 ... -- CPU_WriteMem(1024 bytes @ 0x20000164)  returns 0x400 (0006ms, 0579ms total)
TB38C 001:426 JLINK_WriteReg(R0, 0x08002000)  returns 0x00 (0001ms, 0580ms total)
TB38C 001:427 JLINK_WriteReg(R1, 0x00000400)  returns 0x00 (0000ms, 0580ms total)
TB38C 001:427 JLINK_WriteReg(R2, 0x20000164)  returns 0x00 (0000ms, 0580ms total)
TB38C 001:427 JLINK_WriteReg(R3, 0x00000000)  returns 0x00 (0000ms, 0580ms total)
TB38C 001:427 JLINK_WriteReg(R4, 0x00000000)  returns 0x00 (0000ms, 0580ms total)
TB38C 001:427 JLINK_WriteReg(R5, 0x00000000)  returns 0x00 (0000ms, 0580ms total)
TB38C 001:427 JLINK_WriteReg(R6, 0x00000000)  returns 0x00 (0000ms, 0580ms total)
TB38C 001:427 JLINK_WriteReg(R7, 0x00000000)  returns 0x00 (0000ms, 0580ms total)
TB38C 001:427 JLINK_WriteReg(R8, 0x00000000)  returns 0x00 (0000ms, 0580ms total)
TB38C 001:427 JLINK_WriteReg(R9, 0x20000160)  returns 0x00 (0000ms, 0580ms total)
TB38C 001:427 JLINK_WriteReg(R10, 0x00000000)  returns 0x00 (0000ms, 0580ms total)
TB38C 001:427 JLINK_WriteReg(R11, 0x00000000)  returns 0x00 (0000ms, 0580ms total)
TB38C 001:427 JLINK_WriteReg(R12, 0x00000000)  returns 0x00 (0000ms, 0580ms total)
TB38C 001:427 JLINK_WriteReg(R13 (SP), 0x20000800)  returns 0x00 (0000ms, 0580ms total)
TB38C 001:427 JLINK_WriteReg(R14, 0x20000001)  returns 0x00 (0000ms, 0580ms total)
TB38C 001:427 JLINK_WriteReg(R15 (PC), 0x200000F4)  returns 0x00 (0000ms, 0580ms total)
TB38C 001:427 JLINK_WriteReg(XPSR, 0x01000000)  returns 0x00 (0000ms, 0580ms total)
TB38C 001:427 JLINK_WriteReg(MSP, 0x20000800)  returns 0x00 (0000ms, 0580ms total)
TB38C 001:427 JLINK_WriteReg(PSP, 0x20000800)  returns 0x00 (0000ms, 0580ms total)
TB38C 001:427 JLINK_WriteReg(CFBP, 0x00000000)  returns 0x00 (0000ms, 0580ms total)
TB38C 001:427 JLINK_SetBPEx(Addr = 0x20000000, Type = 0xFFFFFFF2)  returns 0x0000000D (0000ms, 0580ms total)
TB38C 001:427 JLINK_Go() -- CPU_ReadMem(4 bytes @ 0xE0001000) (0002ms, 0582ms total)
TB38C 001:429 JLINK_IsHalted()  returns FALSE (0000ms, 0582ms total)
TB38C 001:434 JLINK_IsHalted()  returns FALSE (0000ms, 0582ms total)
TB38C 001:436 JLINK_IsHalted()  returns FALSE (0000ms, 0582ms total)
TB38C 001:438 JLINK_IsHalted()  returns FALSE (0000ms, 0582ms total)
TB38C 001:444 JLINK_IsHalted()  returns FALSE (0000ms, 0582ms total)
TB38C 001:446 JLINK_IsHalted()  returns FALSE (0000ms, 0582ms total)
TB38C 001:448 JLINK_IsHalted()  returns FALSE (0000ms, 0582ms total)
TB38C 001:450 JLINK_IsHalted()  returns FALSE (0000ms, 0582ms total)
TB38C 001:452 JLINK_IsHalted()  returns FALSE (0000ms, 0582ms total)
TB38C 001:458 JLINK_IsHalted()  returns FALSE (0000ms, 0582ms total)
TB38C 001:460 JLINK_IsHalted() -- CPU_ReadMem(2 bytes @ 0x20000000)  returns TRUE (0003ms, 0585ms total)
TB38C 001:463 JLINK_ReadReg(R15 (PC))  returns 0x20000000 (0000ms, 0582ms total)
TB38C 001:463 JLINK_ClrBPEx(BPHandle = 0x0000000D)  returns 0x00 (0000ms, 0582ms total)
TB38C 001:463 JLINK_ReadReg(R0)  returns 0x00000000 (0000ms, 0582ms total)
TB38C 001:464 JLINK_WriteMem(0x20000164, 0x0400 Bytes, ...) - Data: 70 47 21 B1 02 88 42 F0 04 02 02 80 04 E0 02 88 ... -- CPU_WriteMem(1024 bytes @ 0x20000164)  returns 0x400 (0006ms, 0588ms total)
TB38C 001:470 JLINK_WriteReg(R0, 0x08002400)  returns 0x00 (0000ms, 0588ms total)
TB38C 001:470 JLINK_WriteReg(R1, 0x00000400)  returns 0x00 (0000ms, 0588ms total)
TB38C 001:470 JLINK_WriteReg(R2, 0x20000164)  returns 0x00 (0000ms, 0588ms total)
TB38C 001:470 JLINK_WriteReg(R3, 0x00000000)  returns 0x00 (0000ms, 0588ms total)
TB38C 001:470 JLINK_WriteReg(R4, 0x00000000)  returns 0x00 (0000ms, 0588ms total)
TB38C 001:470 JLINK_WriteReg(R5, 0x00000000)  returns 0x00 (0000ms, 0588ms total)
TB38C 001:470 JLINK_WriteReg(R6, 0x00000000)  returns 0x00 (0000ms, 0588ms total)
TB38C 001:470 JLINK_WriteReg(R7, 0x00000000)  returns 0x00 (0000ms, 0588ms total)
TB38C 001:470 JLINK_WriteReg(R8, 0x00000000)  returns 0x00 (0000ms, 0588ms total)
TB38C 001:470 JLINK_WriteReg(R9, 0x20000160)  returns 0x00 (0000ms, 0588ms total)
TB38C 001:470 JLINK_WriteReg(R10, 0x00000000)  returns 0x00 (0000ms, 0588ms total)
TB38C 001:470 JLINK_WriteReg(R11, 0x00000000)  returns 0x00 (0000ms, 0588ms total)
TB38C 001:470 JLINK_WriteReg(R12, 0x00000000)  returns 0x00 (0000ms, 0588ms total)
TB38C 001:470 JLINK_WriteReg(R13 (SP), 0x20000800)  returns 0x00 (0000ms, 0588ms total)
TB38C 001:470 JLINK_WriteReg(R14, 0x20000001)  returns 0x00 (0000ms, 0588ms total)
TB38C 001:470 JLINK_WriteReg(R15 (PC), 0x200000F4)  returns 0x00 (0000ms, 0588ms total)
TB38C 001:470 JLINK_WriteReg(XPSR, 0x01000000)  returns 0x00 (0000ms, 0588ms total)
TB38C 001:470 JLINK_WriteReg(MSP, 0x20000800)  returns 0x00 (0000ms, 0588ms total)
TB38C 001:470 JLINK_WriteReg(PSP, 0x20000800)  returns 0x00 (0000ms, 0588ms total)
TB38C 001:470 JLINK_WriteReg(CFBP, 0x00000000)  returns 0x00 (0000ms, 0588ms total)
TB38C 001:470 JLINK_SetBPEx(Addr = 0x20000000, Type = 0xFFFFFFF2)  returns 0x0000000E (0000ms, 0588ms total)
TB38C 001:470 JLINK_Go() -- CPU_ReadMem(4 bytes @ 0xE0001000) (0002ms, 0590ms total)
TB38C 001:472 JLINK_IsHalted()  returns FALSE (0000ms, 0590ms total)
TB38C 001:476 JLINK_IsHalted()  returns FALSE (0000ms, 0590ms total)
TB38C 001:478 JLINK_IsHalted()  returns FALSE (0000ms, 0590ms total)
TB38C 001:480 JLINK_IsHalted()  returns FALSE (0000ms, 0590ms total)
TB38C 001:482 JLINK_IsHalted()  returns FALSE (0000ms, 0590ms total)
TB38C 001:484 JLINK_IsHalted()  returns FALSE (0000ms, 0590ms total)
TB38C 001:486 JLINK_IsHalted()  returns FALSE (0000ms, 0590ms total)
TB38C 001:495 JLINK_IsHalted()  returns FALSE (0000ms, 0590ms total)
TB38C 001:497 JLINK_IsHalted()  returns FALSE (0000ms, 0590ms total)
TB38C 001:499 JLINK_IsHalted()  returns FALSE (0000ms, 0590ms total)
TB38C 001:501 JLINK_IsHalted()  returns FALSE (0000ms, 0590ms total)
TB38C 001:502 JLINK_IsHalted()  returns FALSE (0001ms, 0591ms total)
TB38C 001:508 JLINK_IsHalted() -- CPU_ReadMem(2 bytes @ 0x20000000)  returns TRUE (0003ms, 0593ms total)
TB38C 001:511 JLINK_ReadReg(R15 (PC))  returns 0x20000000 (0000ms, 0590ms total)
TB38C 001:511 JLINK_ClrBPEx(BPHandle = 0x0000000E)  returns 0x00 (0000ms, 0590ms total)
TB38C 001:511 JLINK_ReadReg(R0)  returns 0x00000000 (0000ms, 0590ms total)
TB38C 001:512 JLINK_WriteMem(0x20000164, 0x0400 Bytes, ...) - Data: 04 78 42 F8 34 30 42 89 03 89 42 EA 03 43 91 4A ... -- CPU_WriteMem(1024 bytes @ 0x20000164)  returns 0x400 (0006ms, 0596ms total)
TB38C 001:519 JLINK_WriteReg(R0, 0x08002800)  returns 0x00 (0000ms, 0596ms total)
TB38C 001:519 JLINK_WriteReg(R1, 0x00000400)  returns 0x00 (0000ms, 0596ms total)
TB38C 001:519 JLINK_WriteReg(R2, 0x20000164)  returns 0x00 (0000ms, 0596ms total)
TB38C 001:519 JLINK_WriteReg(R3, 0x00000000)  returns 0x00 (0000ms, 0596ms total)
TB38C 001:519 JLINK_WriteReg(R4, 0x00000000)  returns 0x00 (0000ms, 0596ms total)
TB38C 001:519 JLINK_WriteReg(R5, 0x00000000)  returns 0x00 (0000ms, 0596ms total)
TB38C 001:519 JLINK_WriteReg(R6, 0x00000000)  returns 0x00 (0000ms, 0596ms total)
TB38C 001:519 JLINK_WriteReg(R7, 0x00000000)  returns 0x00 (0000ms, 0596ms total)
TB38C 001:519 JLINK_WriteReg(R8, 0x00000000)  returns 0x00 (0000ms, 0596ms total)
TB38C 001:519 JLINK_WriteReg(R9, 0x20000160)  returns 0x00 (0000ms, 0596ms total)
TB38C 001:519 JLINK_WriteReg(R10, 0x00000000)  returns 0x00 (0000ms, 0596ms total)
TB38C 001:519 JLINK_WriteReg(R11, 0x00000000)  returns 0x00 (0000ms, 0596ms total)
TB38C 001:519 JLINK_WriteReg(R12, 0x00000000)  returns 0x00 (0000ms, 0596ms total)
TB38C 001:519 JLINK_WriteReg(R13 (SP), 0x20000800)  returns 0x00 (0000ms, 0596ms total)
